# MHz S MA R 50
!   freq        S11       
   1.000  0.00631    6.69
  21.995  0.01538  -33.77
  42.990  0.02280  -76.67
  63.985  0.03010 -109.62
  84.980  0.03609 -138.29
 105.975  0.03755 -165.99
 126.970  0.03520  167.59
 147.965  0.02903  143.88
 168.960  0.01899  126.60
 189.955  0.00975  142.36
 210.950  0.01413 -176.52
 231.945  0.02500  173.26
 252.940  0.03252  149.31
 273.935  0.03502  119.51
 294.930  0.03185   83.66
 315.925  0.02524   34.69
 336.920  0.02381  -34.46
 357.915  0.03513  -96.53
 378.910  0.05158 -140.24
 399.905  0.06624 -175.68
 420.900  0.07497  151.67
 441.895  0.07582  120.15
 462.890  0.06834   88.42
 483.885  0.05336   55.23
 504.880  0.03372   17.31
 525.875  0.01501  -42.56
 546.870  0.01423 -154.55
 567.865  0.02334  146.21
 588.860  0.02547   98.44
 609.855  0.02166   35.96
 630.850  0.02829  -47.16
 651.845  0.05197 -105.23
 672.840  0.08376 -145.99
 693.835  0.11485  179.53
 714.830  0.13924  147.17
 735.825  0.15242  116.27
 756.820  0.15325   84.74
 777.815  0.14193   53.25
 798.810  0.11833   20.55
 819.805  0.08917  -13.70
 840.800  0.05887  -50.06
 861.795  0.03212  -86.29
 882.790  0.01185  -97.24
 903.785  0.02140  -50.43
 924.780  0.05204  -77.80
 945.775  0.09280 -112.94
 966.770  0.13951 -146.53
 987.765  0.18540 -178.98
1008.760  0.22239  149.62
1029.755  0.24601  119.25
1050.750  0.25190   88.93
1071.745  0.23944   58.49
1092.740  0.21086   27.61
1113.735  0.16881   -3.24
1134.730  0.12215  -34.39
1155.725  0.07706  -61.04
1176.720  0.04390  -70.27
1197.715  0.04788  -57.41
1218.710  0.08362  -74.97
1239.705  0.13184 -106.31
1260.700  0.18720 -140.50
1281.695  0.24310 -173.13
1302.690  0.28801  154.94
1323.685  0.31738  123.88
1344.680  0.32787   93.55
1365.675  0.31440   63.61
1386.670  0.27728   34.11
1407.665  0.22368    3.89
1428.660  0.15994  -25.43
1449.655  0.09722  -49.98
1470.650  0.05428  -51.33
1491.645  0.06375  -38.92
1512.640  0.10456  -60.74
1533.635  0.15642  -95.71
1554.630  0.21501 -132.27
1575.625  0.27378 -167.37
1596.620  0.32231  159.41
1617.615  0.35407  127.87
1638.610  0.36268   97.54
1659.605  0.34288   67.27
1680.600  0.30138   37.61
1701.595  0.23484    8.48
1722.590  0.15539  -18.43
1743.585  0.07984  -34.61
1764.580  0.04876   -5.66
1785.575  0.08494   -4.13
1806.570  0.12529  -37.30
1827.565  0.16597  -79.77
1848.560  0.21430 -122.56
1869.555  0.26784 -161.75
1890.550  0.31579  161.85
1911.545  0.34748  128.84
1932.540  0.35428   96.73
1953.535  0.33137   66.76
1974.530  0.28328   37.05
1995.525  0.20978    8.90
2016.520  0.12312  -14.55
2037.515  0.05283  -10.52
2058.510  0.06978   29.86
2079.505  0.11367    8.39
2100.500  0.14531  -29.95
2121.495  0.17554  -76.38
2142.490  0.21696 -122.94
2163.485  0.26536 -164.73
2184.480  0.31303  157.09
2205.475  0.34191  123.26
2226.470  0.34553   92.09
2247.465  0.31975   62.00
2268.460  0.25865   34.28
2289.455  0.17893   10.15
2310.450  0.09379   -1.07
2331.445  0.06834   33.51
2352.440  0.11519   36.22
2373.435  0.15378    8.24
2394.430  0.17232  -29.43
2415.425  0.18253  -77.11
2436.420  0.20439 -125.25
2457.415  0.24423 -171.33
2478.410  0.27895  149.80
2499.405  0.30520  114.92
2520.400  0.29823   84.47
2541.395  0.25697   55.45
2562.390  0.19624   30.92
2583.385  0.11303   17.33
2604.380  0.07257   42.67
2625.375  0.10705   55.10
2646.370  0.16320   37.54
2667.365  0.17730    5.61
2688.360  0.17462  -34.74
2709.355  0.16028  -81.11
2730.350  0.16475 -133.76
2751.345  0.19012  178.31
2772.340  0.22157  133.81
2793.335  0.23530   99.53
2814.330  0.20428   69.59
2835.325  0.14333   42.72
2856.320  0.07279   35.52
2877.315  0.05519   92.81
2898.310  0.12880   92.87
2919.305  0.18495   72.91
2940.300  0.20588   47.19
2961.295  0.18928   16.98
2982.290  0.13462  -13.70
3003.285  0.07743  -56.97
3024.280  0.02572 -150.52
3045.275  0.06317  102.27
3066.270  0.09630   68.35
3087.265  0.09180   24.05
3108.260  0.06347  -30.04
3129.255  0.06319 -131.35
3150.250  0.13442  168.95
3171.245  0.20223  129.98
3192.240  0.25587   99.75
3213.235  0.27940   72.44
3234.230  0.26303   48.00
3255.225  0.23314   24.76
3276.220  0.18953    9.40
3297.215  0.14864    1.29
3318.210  0.13408  -10.36
3339.205  0.13775  -35.26
3360.200  0.14893  -71.01
3381.195  0.17751 -121.71
3402.190  0.23796 -165.66
3423.185  0.31572  157.28
3444.180  0.37467  122.31
3465.175  0.43026   91.49
3486.170  0.43465   63.48
3507.165  0.44275   37.02
3528.160  0.41244   12.95
3549.155  0.37723  -12.99
3570.150  0.33990  -37.60
3591.145  0.31571  -66.62
3612.140  0.34086 -100.95
3633.135  0.36950 -138.25
3654.130  0.43181 -178.64
3675.125  0.50166  148.58
3696.120  0.58572  114.08
3717.115  0.62546   82.66
3738.110  0.66121   55.72
3759.105  0.64663   29.57
3780.100  0.63850    0.12
3801.095  0.60291  -26.97
3822.090  0.57467  -58.63
3843.085  0.57115  -89.00
3864.080  0.58908 -120.62
3885.075  0.65557 -154.51
3906.070  0.69538  172.05
3927.065  0.77165  140.24
3948.060  0.78933  110.77
3969.055  0.79596   84.83
3990.050  0.81458   60.61
4011.045  0.81160   34.38
4032.040  0.74887   13.27
4053.035  0.74068   -9.91
4074.030  0.69501  -38.69
4095.025  0.66283  -65.63
4116.020  0.64230  -91.08
4137.015  0.61075 -123.59
4158.010  0.67575 -155.81
4179.005  0.72194  177.01
4200.000  0.67635  149.58
