# MHz S MA R 50
!   freq        S11              S21              S12              S22       
   1.000  0.99198  178.85  0.00032    9.69  0.00016   56.76  0.99283  178.86
  21.995  0.97773  153.49  0.00032  121.25  0.00017  102.72  0.97806  153.53
  42.990  0.97101  128.62  0.00022  142.77  0.00025  153.93  0.97102  128.64
  63.985  0.96652  103.80  0.00009  119.25  0.00023   64.03  0.96654  103.80
  84.980  0.96381   78.69  0.00022   58.72  0.00012    0.43  0.96384   78.69
 105.975  0.96432   53.48  0.00018   51.32  0.00015   52.75  0.95963   53.43
 126.970  0.96396   27.90  0.00020   18.06  0.00032   34.37  0.96423   27.90
 147.965  0.96629    2.19  0.00024  -10.84  0.00023  -23.00  0.96613    2.20
 168.960  0.96677  -23.69  0.00033  -19.52  0.00033  -29.23  0.96657  -23.67
 189.955  0.96635  -49.53  0.00036  -45.60  0.00037  -54.77  0.96628  -49.53
 210.950  0.96417  -75.25  0.00034  -54.77  0.00031  -65.34  0.96469  -75.25
 231.945  0.96126 -100.81  0.00023  -46.85  0.00021  -79.66  0.96128 -100.77
 252.940  0.95844 -126.01  0.00027  -74.83  0.00026  -75.19  0.95780 -126.00
 273.935  0.95417 -150.92  0.00029  -93.81  0.00032 -102.51  0.95363 -150.94
 294.930  0.95039 -175.46  0.00030 -128.50  0.00039 -139.88  0.94998 -175.45
 315.925  0.94656  160.12  0.00038 -113.57  0.00035 -122.10  0.94628  160.11
 336.920  0.94450  135.84  0.00033 -140.67  0.00032 -131.35  0.94455  135.91
 357.915  0.94322  111.58  0.00041 -167.71  0.00041 -148.27  0.94308  111.61
 378.910  0.94169   87.25  0.00039 -148.47  0.00037 -153.91  0.94170   87.16
 399.905  0.94175   62.55  0.00055 -157.08  0.00050 -157.38  0.94166   62.58
 420.900  0.94078   37.71  0.00047 -162.47  0.00049 -152.09  0.94093   37.66
 441.895  0.94059   12.37  0.00067  173.25  0.00062  173.15  0.94028   12.36
 462.890  0.93983  -13.33  0.00065  150.07  0.00064  149.59  0.93948  -13.36
 483.885  0.93769  -39.17  0.00064  143.54  0.00061  142.58  0.93771  -39.12
 504.880  0.93508  -65.06  0.00070  125.29  0.00068  127.51  0.93476  -65.08
 525.875  0.93272  -90.83  0.00055   88.12  0.00058   95.74  0.93255  -90.82
 546.870  0.93122 -116.41  0.00055   98.12  0.00057   89.10  0.93117 -116.38
 567.865  0.92954 -141.76  0.00079   88.65  0.00066   65.52  0.93031 -141.82
 588.860  0.92872 -166.73  0.00066   48.30  0.00055   43.39  0.92814 -166.72
 609.855  0.92861  168.80  0.00063   31.03  0.00047   52.07  0.92855  168.89
 630.850  0.92952  144.82  0.00025   56.84  0.00021   37.65  0.93181  144.88
 651.845  0.93282  120.94  0.00058   22.97  0.00044   13.59  0.93210  120.85
 672.840  0.93252   96.82  0.00063   15.74  0.00060   21.36  0.93254   96.81
 693.835  0.93264   72.73  0.00035  -16.08  0.00058    7.06  0.93227   72.78
 714.830  0.92909   48.08  0.00054  -19.04  0.00048  -16.88  0.92878   48.01
 735.825  0.92762   23.66  0.00088  -17.66  0.00050   -9.29  0.92853   23.73
 756.820  0.92358   -1.62  0.00041  -53.13  0.00050  -54.17  0.92345   -1.71
 777.815  0.92275  -27.49  0.00047  -86.97  0.00041  -98.75  0.92221  -27.41
 798.810  0.91602  -53.39  0.00069  -96.59  0.00070 -114.55  0.91590  -53.40
 819.805  0.91429  -79.28  0.00074 -121.93  0.00059 -149.73  0.91394  -79.33
 840.800  0.91236 -105.58  0.00062 -107.26  0.00033  -94.00  0.91213 -105.56
 861.795  0.91314 -131.23  0.00031  171.66  0.00054  157.98  0.91446 -131.34
 882.790  0.91358 -156.30  0.00042 -169.69  0.00052 -156.96  0.91368 -156.33
 903.785  0.91538  178.87  0.00044 -179.86  0.00031  171.90  0.91502  178.71
 924.780  0.91837  154.47  0.00016 -127.28  0.00008   33.51  0.91786  154.43
 945.775  0.92083  130.43  0.00026 -126.78  0.00015 -146.28  0.92050  130.31
 966.770  0.92180  106.80  0.00021 -146.15  0.00026 -143.49  0.92076  106.81
 987.765  0.92041   82.93  0.00021  -87.24  0.00018   37.01  0.92070   82.82
1008.760  0.91812   58.84  0.00018  135.12  0.00028  167.28  0.91719   58.87
1029.755  0.91350   34.45  0.00020  -93.99  0.00015 -118.68  0.91251   34.12
1050.750  0.91025    9.25  0.00023  -93.98  0.00009  -60.52  0.91030    9.39
1071.745  0.90335  -16.42  0.00033 -142.06  0.00017 -117.59  0.90455  -16.64
1092.740  0.89674  -42.32  0.00037 -107.34  0.00039  -72.11  0.89695  -42.49
1113.735  0.89058  -68.74  0.00072  -94.15  0.00101 -154.26  0.89209  -68.87
1134.730  0.89178  -95.65  0.00062 -149.79  0.00055 -144.86  0.89087  -95.69
1155.725  0.88904 -121.97  0.00068 -173.49  0.00098 -154.21  0.88724 -121.82
1176.720  0.89069 -147.98  0.00115  169.68  0.00101  175.08  0.88899 -148.01
1197.715  0.89517 -173.48  0.00124  156.24  0.00162  178.19  0.89458 -173.41
1218.710  0.89846  161.29  0.00117  142.64  0.00119  148.85  0.89900  161.38
1239.705  0.90257  137.46  0.00092  148.87  0.00152  147.45  0.90185  137.39
1260.700  0.90435  112.84  0.00186  144.41  0.00173  141.55  0.90373  112.86
1281.695  0.90550   88.70  0.00264  128.04  0.00235  130.24  0.90383   88.87
1302.690  0.90519   64.62  0.00217  108.44  0.00235  114.58  0.90610   64.66
1323.685  0.89972   40.73  0.00314  110.26  0.00290  112.98  0.89800   40.38
1344.680  0.89130   15.24  0.00427   99.15  0.00435   94.93  0.89063   15.34
1365.675  0.88166  -10.29  0.00541   77.67  0.00578   80.97  0.88082  -10.43
1386.670  0.87298  -36.60  0.00610   61.99  0.00626   58.02  0.87217  -36.66
1407.665  0.86387  -63.71  0.00816   40.98  0.00768   36.63  0.86314  -63.53
1428.660  0.85815  -91.64  0.00865   20.94  0.00895   22.40  0.85760  -91.15
1449.655  0.85940 -118.85  0.00936   -5.36  0.00884   -2.03  0.85961 -118.87
1470.650  0.86052 -145.54  0.00966  -19.98  0.00952  -19.32  0.86135 -145.49
1491.645  0.86581 -172.26  0.00980  -32.74  0.01007  -32.78  0.86622 -172.56
1512.640  0.87145  162.25  0.01038  -43.96  0.01050  -42.85  0.87235  162.10
1533.635  0.88077  136.78  0.01185  -50.29  0.01145  -51.86  0.87845  136.61
1554.630  0.88471  112.59  0.01317  -61.92  0.01314  -61.04  0.88358  112.38
1575.625  0.88871   88.00  0.01624  -71.25  0.01568  -70.78  0.88310   87.83
1596.620  0.87604   63.42  0.01963  -80.42  0.01977  -81.24  0.87643   63.16
1617.615  0.87309   37.88  0.02533  -94.57  0.02572  -95.50  0.87366   37.96
1638.610  0.85996   12.07  0.03324 -110.97  0.03303 -111.20  0.86059   12.07
1659.605  0.84647  -14.40  0.04225 -131.81  0.04217 -131.17  0.84620  -14.31
1680.600  0.83007  -42.03  0.05155 -154.43  0.05163 -154.69  0.83028  -42.00
1701.595  0.82270  -70.51  0.05806 -178.45  0.05829 -178.33  0.82030  -70.38
1722.590  0.81138  -99.62  0.06120  158.71  0.06101  158.52  0.81154  -99.58
1743.585  0.80914 -128.47  0.06189  139.74  0.06202  140.02  0.80869 -128.29
1764.580  0.81677 -157.18  0.06218  123.90  0.06227  123.91  0.81653 -157.27
1785.575  0.82697  174.43  0.06404  110.88  0.06407  110.80  0.82817  174.35
1806.570  0.83471  147.31  0.06807   99.96  0.06849  100.11  0.83571  147.54
1827.565  0.83958  120.07  0.07688   89.38  0.07642   89.68  0.83840  121.08
1848.560  0.84425   94.27  0.08980   79.54  0.08975   79.16  0.84344   94.27
1869.555  0.84400   68.24  0.11015   67.26  0.11009   67.22  0.84435   68.41
1890.550  0.82836   41.81  0.14022   53.15  0.13986   53.10  0.82958   42.02
1911.545  0.80484   14.88  0.18153   34.84  0.18153   35.60  0.80454   15.02
1932.540  0.77877  -13.62  0.23213   12.96  0.23204   13.22  0.77805  -13.62
1953.535  0.75472  -42.92  0.27964  -13.15  0.27883  -13.26  0.75316  -42.78
1974.530  0.73014  -73.48  0.30664  -40.45  0.30659  -40.40  0.72990  -73.60
1995.525  0.71905 -104.79  0.31039  -65.57  0.31037  -65.15  0.71915 -104.70
2016.520  0.72049 -137.21  0.30023  -86.99  0.30029  -86.93  0.71908 -137.62
2037.515  0.72517 -169.09  0.29061 -104.36  0.29120 -104.47  0.72557 -169.30
2058.510  0.73112  159.96  0.29036 -117.71  0.29032 -118.17  0.73279  159.84
2079.505  0.73446  128.90  0.30485 -130.22  0.30457 -130.27  0.73553  129.07
2100.500  0.72983   99.62  0.33900 -142.09  0.33836 -142.21  0.72985   99.76
2121.495  0.69161   70.14  0.39801 -155.85  0.39754 -155.64  0.69178   70.23
2142.490  0.63836   41.33  0.48834 -172.66  0.48696 -172.00  0.63664   41.73
2163.485  0.56872   13.66  0.59565  166.26  0.59455  166.32  0.56851   13.68
2184.480  0.50058  -13.07  0.68993  140.64  0.68964  141.03  0.50022  -12.62
2205.475  0.45875  -39.39  0.74680  114.60  0.74572  114.51  0.45900  -39.14
2226.470  0.44399  -68.89  0.75337   88.58  0.75397   88.98  0.44483  -68.93
2247.465  0.44424 -103.45  0.72558   65.23  0.72242   65.81  0.44455 -102.92
2268.460  0.46644 -139.85  0.67521   45.90  0.67424   45.50  0.46560 -140.10
2289.455  0.48650 -175.69  0.63990   29.44  0.63903   29.52  0.48666 -175.41
2310.450  0.50806  149.14  0.62766   14.99  0.62592   15.24  0.50272  148.42
2331.445  0.49632  114.83  0.64553    1.15  0.64569    1.54  0.49393  114.32
2352.440  0.46938   83.48  0.69314  -13.62  0.69348  -13.08  0.46917   83.50
2373.435  0.41085   54.86  0.75359  -31.18  0.75603  -31.16  0.41088   54.78
2394.430  0.33231   31.01  0.80493  -51.30  0.80784  -51.20  0.32877   31.37
2415.425  0.24926   14.38  0.82955  -71.12  0.83144  -70.93  0.25365   14.48
2436.420  0.22306    6.64  0.83901  -89.70  0.83729  -89.53  0.22318    6.71
2457.415  0.23266   -8.49  0.84943 -109.04  0.84984 -108.63  0.23291   -8.42
2478.410  0.25343  -37.10  0.85313 -128.03  0.85405 -128.26  0.25394  -37.14
2499.405  0.27370  -74.14  0.83098 -146.77  0.83111 -146.93  0.27113  -73.78
2520.400  0.28621 -115.17  0.81523 -163.03  0.81510 -163.98  0.28739 -115.29
2541.395  0.31615 -157.78  0.78313 -178.90  0.78305 -178.76  0.31832 -156.79
2562.390  0.34246  163.59  0.77309  167.46  0.77423  167.07  0.34444  163.30
2583.385  0.35270  128.98  0.79188  153.17  0.79380  153.13  0.35881  128.82
2604.380  0.34814   98.00  0.83741  138.48  0.83696  138.47  0.34786   97.98
2625.375  0.30344   70.10  0.88581  121.42  0.88178  121.23  0.30492   69.88
2646.370  0.25115   49.42  0.90847  103.22  0.90558  103.29  0.24922   49.63
2667.365  0.18918   39.50  0.91067   84.80  0.90750   84.80  0.18964   39.77
2688.360  0.17515   40.13  0.90796   68.11  0.90771   67.95  0.17622   40.58
2709.355  0.20866   32.07  0.90945   51.45  0.91003   52.00  0.20891   31.97
2730.350  0.24263   10.07  0.90420   35.69  0.90458   35.19  0.24252    9.73
2751.345  0.25742  -22.22  0.88986   18.49  0.88867   18.51  0.25612  -22.34
2772.340  0.25387  -59.43  0.86939    2.12  0.86815    2.37  0.25561  -59.58
2793.335  0.24631 -102.34  0.84736  -12.00  0.84793  -11.55  0.24954 -101.83
2814.330  0.26062 -147.06  0.83816  -25.96  0.83891  -25.08  0.26214 -146.43
2835.325  0.28207  173.81  0.83867  -39.27  0.84095  -39.08  0.27826  174.89
2856.320  0.29622  138.63  0.86287  -53.04  0.85736  -52.76  0.30482  137.45
2877.315  0.29507  107.13  0.88120  -67.99  0.88152  -67.79  0.29337  107.78
2898.310  0.25174   82.44  0.89800  -83.77  0.90455  -83.15  0.25154   83.12
2919.305  0.21751   69.19  0.91954 -100.63  0.91846 -100.76  0.21129   68.36
2940.300  0.18449   64.95  0.91457 -117.17  0.91405 -116.74  0.18284   64.43
2961.295  0.20337   63.30  0.90758 -132.61  0.90637 -133.25  0.20185   62.49
2982.290  0.24172   50.88  0.89825 -148.90  0.89965 -148.63  0.24246   51.40
3003.285  0.26543   27.63  0.89601 -163.61  0.89372 -163.75  0.26655   28.46
3024.280  0.27168   -0.32  0.88640 -179.26  0.88595 -179.83  0.27100   -0.18
3045.275  0.26234  -32.18  0.86618  165.18  0.87641  164.80  0.25441  -33.03
3066.270  0.22114  -70.46  0.85756  151.45  0.85707  151.12  0.21761  -71.57
3087.265  0.19731 -116.01  0.83360  137.74  0.83459  137.38  0.19584 -115.77
3108.260  0.18814 -164.11  0.82048  123.42  0.81977  124.10  0.18797 -163.91
3129.255  0.20384  154.06  0.82245  110.23  0.82274  110.61  0.19659  154.87
3150.250  0.19920  121.23  0.84283   95.59  0.84388   96.18  0.19886  120.96
3171.245  0.17822   95.86  0.86711   81.49  0.87108   80.65  0.17969   95.38
3192.240  0.14589   80.57  0.88950   65.76  0.88776   65.72  0.14585   81.65
3213.235  0.13413   83.21  0.90068   49.93  0.90196   49.98  0.13281   85.90
3234.230  0.16644   84.22  0.90717   34.37  0.90584   34.34  0.16614   85.85
3255.225  0.20984   74.76  0.90652   19.96  0.90976   20.31  0.21654   72.87
3276.220  0.25038   51.70  0.91311    5.47  0.91376    5.56  0.25324   51.96
3297.215  0.26525   26.67  0.91396   -9.61  0.91461  -10.23  0.26868   26.75
3318.210  0.22957   -2.56  0.91023  -25.54  0.91057  -24.89  0.23197   -1.64
3339.205  0.19551  -33.45  0.90350  -39.18  0.90242  -39.46  0.19443  -33.15
3360.200  0.13257  -72.78  0.87942  -54.28  0.88162  -54.03  0.13481  -74.11
3381.195  0.09419 -136.22  0.86331  -67.88  0.86346  -67.76  0.10568 -137.72
3402.190  0.09678  159.83  0.85096  -80.53  0.85240  -81.23  0.09798  159.19
3423.185  0.10828  115.12  0.85652  -93.90  0.85696  -94.55  0.11014  113.79
3444.180  0.10052   83.57  0.86776 -109.39  0.86715 -108.88  0.10684   81.52
3465.175  0.08018   63.02  0.87485 -124.41  0.87552 -124.54  0.08683   62.65
3486.170  0.04022   95.59  0.87609 -139.31  0.87757 -139.56  0.04836   85.98
3507.165  0.08778  110.32  0.86263 -154.26  0.86720 -154.04  0.08466  114.71
3528.160  0.15558  104.17  0.86133 -167.85  0.85964 -167.91  0.15035  104.49
3549.155  0.19108   83.75  0.85711  177.05  0.85904  177.18  0.18281   83.79
3570.150  0.21204   61.02  0.86334  163.36  0.86293  163.22  0.21806   62.81
3591.145  0.21352   42.96  0.86332  148.82  0.86375  148.68  0.20373   39.78
3612.140  0.15957   16.83  0.86004  134.95  0.86058  134.44  0.16088   18.11
3633.135  0.10335    9.64  0.85550  119.88  0.85707  119.38  0.10255   13.71
3654.130  0.06487   22.28  0.85147  106.13  0.85433  106.76  0.06596   32.67
3675.125  0.12001   64.72  0.85668   91.36  0.85512   91.12  0.11022   60.42
3696.120  0.16688   41.47  0.85664   77.13  0.85815   77.47  0.16596   44.66
3717.115  0.20210   17.69  0.86670   64.39  0.86614   64.60  0.19721   20.41
3738.110  0.19990   -9.09  0.86875   48.82  0.86967   49.48  0.19159   -7.24
3759.105  0.17066  -44.31  0.86265   34.69  0.86244   34.35  0.16500  -44.03
3780.100  0.15081  -84.28  0.85025   19.95  0.84996   19.29  0.14242  -89.18
3801.095  0.14016 -130.76  0.84220    7.03  0.84111    7.10  0.13387 -134.56
3822.090  0.16913  174.80  0.83878   -6.04  0.83855   -7.20  0.16985  175.02
3843.085  0.17477  130.38  0.84099  -21.66  0.84404  -20.80  0.18517  131.91
3864.080  0.20694  102.38  0.84866  -34.41  0.84864  -34.34  0.20030  106.43
3885.075  0.20422   86.43  0.85568  -48.74  0.85265  -49.16  0.21828   87.46
3906.070  0.19178   70.21  0.85302  -64.00  0.85241  -64.12  0.18613   70.59
3927.065  0.20989   52.33  0.84722  -77.33  0.84934  -77.50  0.20696   58.32
3948.060  0.25181   43.26  0.84794  -90.49  0.85171  -91.48  0.25648   42.85
3969.055  0.27877   28.95  0.85544 -103.94  0.85434 -104.08  0.31255   26.73
3990.050  0.41076   11.58  0.86426 -118.01  0.86313 -118.76  0.35406   10.72
4011.045  0.46290   -9.02  0.87341 -131.92  0.87541 -131.91  0.46734   -9.44
4032.040  0.50831  -30.22  0.86889 -146.76  0.86963 -147.60  0.50301  -30.70
4053.035  0.49712  -42.48  0.85278 -161.35  0.85241 -162.38  0.49890  -43.68
4074.030  0.47753  -69.55  0.83597 -174.06  0.83522 -175.07  0.47023  -69.32
4095.025  0.43311  -98.40  0.81671  170.47  0.81714  170.71  0.45345  -98.64
4116.020  0.41826 -116.43  0.80983  157.71  0.81003  157.95  0.38800 -117.68
4137.015  0.34119 -146.54  0.82330  143.64  0.82442  143.86  0.31243 -149.54
4158.010  0.38944 -164.70  0.85137  130.90  0.85351  130.56  0.45744 -157.45
4179.005  0.36057  165.39  0.86866  116.63  0.86958  117.04  0.34217  165.31
4200.000  0.46439  170.02  0.86331  103.12  0.86279  103.25  0.40927  152.14
