# MHz S MA R 50
!   freq        S11       
   1.000  0.99251  178.92
  21.995  0.97762  153.59
  42.990  0.97104  128.62
  63.985  0.96696  103.81
  84.980  0.96423   78.68
 105.975  0.96366   53.45
 126.970  0.96474   27.85
 147.965  0.96615    2.15
 168.960  0.96671  -23.73
 189.955  0.96628  -49.62
 210.950  0.96444  -75.39
 231.945  0.96139 -100.87
 252.940  0.95747 -126.11
 273.935  0.95419 -151.05
 294.930  0.95019 -175.55
 315.925  0.94716  160.05
 336.920  0.94465  135.81
 357.915  0.94358  111.54
 378.910  0.94188   87.19
 399.905  0.94207   62.38
 420.900  0.94163   37.55
 441.895  0.94077   12.27
 462.890  0.93923  -13.44
 483.885  0.93794  -39.25
 504.880  0.93485  -65.21
 525.875  0.93220  -90.99
 546.870  0.93073 -116.58
 567.865  0.92989 -141.93
 588.860  0.93033 -166.85
 609.855  0.92923  168.71
 630.850  0.93238  144.73
 651.845  0.93391  120.79
 672.840  0.93295   96.84
 693.835  0.93178   72.71
 714.830  0.92903   47.97
 735.825  0.92819   23.51
 756.820  0.92327   -1.83
 777.815  0.92272  -27.52
 798.810  0.91642  -53.51
 819.805  0.91455  -79.38
 840.800  0.91202 -105.76
 861.795  0.91452 -131.46
 882.790  0.91405 -156.53
 903.785  0.91610  178.65
 924.780  0.91864  154.23
 945.775  0.92056  130.19
 966.770  0.92112  106.40
 987.765  0.92092   82.67
1008.760  0.91804   58.54
1029.755  0.91316   34.00
1050.750  0.90997    9.21
1071.745  0.90372  -16.59
1092.740  0.89732  -42.57
1113.735  0.89063  -69.04
1134.730  0.89107  -95.89
1155.725  0.88814 -122.37
1176.720  0.88982 -148.14
1197.715  0.89526 -173.87
1218.710  0.89848  161.16
1239.705  0.90215  136.85
1260.700  0.90369  112.63
1281.695  0.90496   88.46
1302.690  0.90448   64.62
1323.685  0.89842   40.09
1344.680  0.88960   15.04
1365.675  0.88049  -10.64
1386.670  0.87178  -37.03
1407.665  0.86272  -63.77
1428.660  0.85736  -91.90
1449.655  0.85876 -119.24
1470.650  0.86030 -145.90
1491.645  0.86518 -172.46
1512.640  0.87014  161.64
1533.635  0.87518  136.19
1554.630  0.88615  111.76
1575.625  0.88596   87.56
1596.620  0.87487   62.95
1617.615  0.87135   37.71
1638.610  0.85886   11.93
1659.605  0.84425  -14.74
1680.600  0.82850  -42.23
1701.595  0.81958  -70.75
1722.590  0.80992  -99.92
1743.585  0.80649 -128.86
1764.580  0.81403 -158.01
1785.575  0.82171  173.79
1806.570  0.83093  146.72
1827.565  0.83571  119.85
1848.560  0.84024   93.78
1869.555  0.84085   68.15
1890.550  0.82590   41.59
1911.545  0.80533   14.37
1932.540  0.78227  -13.94
1953.535  0.75876  -43.54
1974.530  0.73338  -74.68
1995.525  0.71677 -106.62
2016.520  0.70969 -139.51
2037.515  0.70731 -170.98
2058.510  0.70755  158.34
2079.505  0.70662  128.71
2100.500  0.70012  100.21
2121.495  0.67270   71.76
2142.490  0.63866   43.89
2163.485  0.59484   16.25
2184.480  0.54327  -13.29
2205.475  0.49113  -43.99
2226.470  0.44118  -76.87
2247.465  0.40372 -110.89
2268.460  0.38964 -146.24
2289.455  0.39174 -177.62
2310.450  0.39989  151.87
2331.445  0.40144  123.29
2352.440  0.40729   97.73
2373.435  0.40584   72.52
2394.430  0.39140   49.98
2415.425  0.36343   26.03
2436.420  0.33534    1.91
2457.415  0.29820  -24.42
2478.410  0.26318  -54.66
2499.405  0.23896  -88.46
2520.400  0.23160 -123.68
2541.395  0.24393 -158.17
2562.390  0.26461  169.13
2583.385  0.28801  140.59
2604.380  0.31925  115.25
2625.375  0.32401   93.34
2646.370  0.34128   70.07
2667.365  0.33731   48.10
2688.360  0.32216   26.04
2709.355  0.29498    2.64
2730.350  0.26113  -22.50
2751.345  0.23509  -52.58
2772.340  0.20370  -84.83
2793.335  0.19816 -120.45
2814.330  0.20881 -156.40
2835.325  0.23490  170.82
2856.320  0.26965  142.53
2877.315  0.29077  118.72
2898.310  0.30283   95.56
2919.305  0.32130   76.02
2940.300  0.31714   56.25
2961.295  0.29782   35.84
2982.290  0.26930   14.54
3003.285  0.23359   -8.29
3024.280  0.20109  -31.96
3045.275  0.16108  -61.20
3066.270  0.13057  -93.99
3087.265  0.11841 -136.94
3108.260  0.13493 -179.43
3129.255  0.15914  150.94
3150.250  0.17995  125.95
3171.245  0.19754  102.52
3192.240  0.20925   85.82
3213.235  0.20870   68.11
3234.230  0.19558   52.51
3255.225  0.18365   36.36
3276.220  0.15388   23.12
3297.215  0.13361   12.61
3318.210  0.08383    3.50
3339.205  0.05475   -4.97
3360.200  0.04995   20.03
3381.195  0.03687   53.84
3402.190  0.04569   65.97
3423.185  0.05968   64.98
3444.180  0.05633   61.13
3465.175  0.07225   59.22
3486.170  0.05667   64.61
3507.165  0.06308   68.29
3528.160  0.07106   82.38
3549.155  0.07503   88.90
3570.150  0.09180   91.28
3591.145  0.13886   87.01
3612.140  0.14331   75.29
3633.135  0.18627   65.31
3654.130  0.20189   51.12
3675.125  0.20720   34.72
3696.120  0.21306   17.78
3717.115  0.20345   -0.52
3738.110  0.17713  -20.10
3759.105  0.15584  -41.97
3780.100  0.12986  -70.10
3801.095  0.10997 -109.69
3822.090  0.12548 -153.78
3843.085  0.14828  170.01
3864.080  0.21045  143.59
3885.075  0.25795  125.15
3906.070  0.27165  107.23
3927.065  0.29688   79.11
3948.060  0.33695   57.10
3969.055  0.32505   41.89
3990.050  0.34385   23.66
4011.045  0.33693    7.32
4032.040  0.28226  -20.43
4053.035  0.26987  -31.03
4074.030  0.23256  -61.06
4095.025  0.24913  -98.31
4116.020  0.14997 -124.90
4137.015  0.17494 -174.33
4158.010  0.22209  154.00
4179.005  0.25131  133.44
4200.000  0.25076  121.49
