# MHz S MA R 50
!   freq        S11              S21              S12              S22       
   1.000  0.00724   -2.70  0.99202   -1.06  0.99255   -1.03  0.00697   -0.24
  21.995  0.01351  -27.38  0.99165  -15.22  0.99158  -15.18  0.01401  -26.47
  42.990  0.02044  -65.68  0.98743  -29.16  0.98765  -29.13  0.02042  -65.84
  63.985  0.02638  -97.68  0.98491  -43.11  0.98519  -43.10  0.02625  -98.30
  84.980  0.03125 -126.07  0.98364  -57.08  0.98372  -57.09  0.03120 -126.06
 105.975  0.03175 -151.08  0.98759  -70.93  0.98798  -70.92  0.03181 -150.89
 126.970  0.02857 -172.66  0.98114  -84.95  0.98128  -84.93  0.02854 -172.60
 147.965  0.02293  173.73  0.98044  -98.98  0.98071  -98.98  0.02295  173.75
 168.960  0.01759 -179.58  0.97868 -113.06  0.97910 -113.07  0.01772 -179.69
 189.955  0.02217 -162.52  0.97629 -127.03  0.97625 -127.06  0.02222 -162.55
 210.950  0.03450 -167.44  0.97398 -141.07  0.97409 -141.02  0.03459 -167.36
 231.945  0.04769  173.99  0.97177 -154.96  0.97208 -154.94  0.04782  173.90
 252.940  0.05794  149.91  0.97040 -168.88  0.97090 -168.87  0.05799  149.86
 273.935  0.06296  122.25  0.96940  177.17  0.96964  177.22  0.06311  122.30
 294.930  0.06195   91.86  0.96859  163.23  0.96893  163.26  0.06207   91.82
 315.925  0.05578   57.76  0.96769  149.31  0.96843  149.25  0.05593   57.73
 336.920  0.04641   16.94  0.96696  135.31  0.96693  135.36  0.04650   17.05
 357.915  0.03914  -32.59  0.96562  121.34  0.96611  121.34  0.03918  -32.29
 378.910  0.03785  -87.07  0.96426  107.29  0.96466  107.24  0.03796  -86.78
 399.905  0.04162 -135.97  0.96278   93.28  0.96338   93.35  0.04163 -135.63
 420.900  0.04401 -175.89  0.96091   79.28  0.96135   79.32  0.04395 -175.58
 441.895  0.04053  150.57  0.95889   65.50  0.95987   65.45  0.04037  150.79
 462.890  0.02925  121.49  0.95824   51.60  0.95891   51.63  0.02921  121.83
 483.885  0.01144  109.50  0.95764   37.51  0.95802   37.58  0.01141  110.49
 504.880  0.01541 -152.00  0.95654   23.54  0.95716   23.55  0.01563 -152.73
 525.875  0.04042 -168.40  0.95562    9.58  0.95630    9.59  0.04059 -168.60
 546.870  0.06304  164.48  0.95364   -4.33  0.95409   -4.37  0.06320  164.21
 567.865  0.07943  134.99  0.95097  -18.36  0.95185  -18.19  0.07930  135.04
 588.860  0.08591  103.91  0.95106  -32.02  0.95234  -32.08  0.08648  104.07
 609.855  0.08270   69.81  0.95568  -45.94  0.95463  -46.13  0.08295   69.91
 630.850  0.07089   30.75  0.95677  -60.01  0.95795  -59.91  0.07123   30.89
 651.845  0.05613  -17.82  0.95952  -74.48  0.95957  -74.38  0.05648  -17.62
 672.840  0.05059  -80.48  0.96047  -88.91  0.96166  -88.86  0.05067  -79.96
 693.835  0.06024 -139.52  0.95263 -103.21  0.95304 -102.89  0.06029 -139.04
 714.830  0.07549  174.49  0.94357 -117.08  0.94483 -117.06  0.07517  174.61
 735.825  0.08355  135.93  0.93702 -130.52  0.93787 -130.48  0.08360  136.11
 756.820  0.08145   99.76  0.93757 -144.42  0.93761 -144.31  0.08114   99.94
 777.815  0.06708   62.88  0.93874 -158.10  0.94181 -158.28  0.06716   62.86
 798.810  0.04294   18.90  0.94267 -172.46  0.94359 -172.41  0.04279   19.27
 819.805  0.02239  -61.27  0.94012  173.65  0.94320  173.50  0.02238  -61.44
 840.800  0.03656 -156.99  0.93949  159.33  0.94236  159.33  0.03684 -157.00
 861.795  0.06091  153.98  0.93727  145.31  0.93948  145.34  0.06125  153.96
 882.790  0.07744  114.70  0.93934  131.77  0.94089  131.68  0.07754  114.78
 903.785  0.08091   74.74  0.94426  117.50  0.94491  117.38  0.08119   74.84
 924.780  0.07311   29.68  0.94711  103.26  0.94883  103.25  0.07350   30.00
 945.775  0.06514  -28.13  0.94758   88.50  0.94854   88.66  0.06514  -27.79
 966.770  0.07398  -92.89  0.94150   74.33  0.94253   74.26  0.07386  -92.37
 987.765  0.10108 -146.27  0.93179   59.94  0.93381   59.82  0.10095 -146.03
1008.760  0.13080  171.78  0.92420   46.12  0.92614   46.14  0.13081  172.00
1029.755  0.15187  135.45  0.91965   32.07  0.92095   32.06  0.15155  135.31
1050.750  0.15701  101.02  0.92053   18.22  0.92124   18.54  0.15692  101.20
1071.745  0.14335   66.98  0.92453    4.39  0.92516    4.71  0.14334   66.96
1092.740  0.11370   31.67  0.92709   -9.37  0.92887   -9.33  0.11388   31.84
1113.735  0.07312   -9.50  0.92900  -23.76  0.93124  -24.01  0.07319   -9.33
1134.730  0.03515  -75.83  0.93003  -38.57  0.93052  -38.45  0.03517  -75.48
1155.725  0.03729  175.31  0.92918  -52.79  0.92919  -52.57  0.03774  176.13
1176.720  0.06530  117.14  0.92172  -66.61  0.92256  -66.73  0.06523  117.07
1197.715  0.08148   69.92  0.92082  -80.87  0.92326  -80.50  0.08184   70.20
1218.710  0.08613   21.25  0.92642  -94.75  0.92784  -94.88  0.08660   21.36
1239.705  0.08939  -34.67  0.93179 -109.24  0.93218 -109.14  0.08942  -34.42
1260.700  0.10778  -93.56  0.93596 -124.15  0.93697 -123.72  0.10783  -93.37
1281.695  0.14337 -143.58  0.93217 -138.72  0.93243 -138.63  0.14322 -143.45
1302.690  0.18035  174.87  0.91940 -153.67  0.91967 -153.59  0.18035  175.23
1323.685  0.20717  138.24  0.91063 -167.30  0.91025 -167.38  0.20688  138.25
1344.680  0.21577  103.36  0.90461  178.40  0.90556  178.70  0.21582  103.61
1365.675  0.20170   70.20  0.90797  165.38  0.90654  165.65  0.20164   70.45
1386.670  0.16292   36.14  0.91953  150.67  0.92006  150.87  0.16333   36.27
1407.665  0.10769   -0.63  0.92435  135.66  0.92539  135.96  0.10776   -0.54
1428.660  0.04675  -51.70  0.92086  120.68  0.92226  120.74  0.04696  -51.41
1449.655  0.03363  172.80  0.90873  106.03  0.90996  106.14  0.03364  173.98
1470.650  0.07605  108.55  0.89845   92.02  0.89937   92.27  0.07601  108.21
1491.645  0.10510   63.81  0.89871   78.17  0.89986   78.54  0.10502   64.10
1512.640  0.11564   17.90  0.90983   64.08  0.91093   64.22  0.11589   18.17
1533.635  0.11981  -34.34  0.92131   49.58  0.92053   49.15  0.11974  -34.19
1554.630  0.13387  -90.27  0.92439   33.98  0.92525   34.25  0.13380  -90.14
1575.625  0.16706 -142.11  0.91045   18.71  0.91085   18.97  0.16739 -141.75
1596.620  0.20341  174.64  0.89628    4.39  0.89680    4.46  0.20353  174.64
1617.615  0.23023  136.21  0.88692   -9.20  0.88819   -9.28  0.23028  136.29
1638.610  0.23320  101.63  0.89148  -23.21  0.89273  -23.37  0.23462  101.02
1659.605  0.20917   66.50  0.90379  -38.01  0.90511  -37.77  0.20976   66.81
1680.600  0.15883   32.21  0.91726  -53.26  0.91922  -52.84  0.15961   32.14
1701.595  0.08696   -7.08  0.91864  -68.50  0.91944  -68.74  0.08810   -6.99
1722.590  0.02097 -109.63  0.91160  -84.59  0.91317  -84.48  0.02151 -107.87
1743.585  0.07805  137.36  0.89471  -98.83  0.89567  -99.23  0.07661  137.09
1764.580  0.13401   95.11  0.88259 -113.87  0.88380 -113.42  0.13359   95.48
1785.575  0.16424   56.72  0.87938 -127.96  0.88037 -127.69  0.16360   57.52
1806.570  0.16818   16.32  0.89037 -142.55  0.89037 -142.10  0.16819   16.39
1827.565  0.15223  -30.96  0.89816 -157.97  0.89964 -157.87  0.15281  -31.07
1848.560  0.14140  -86.90  0.89569 -173.61  0.89744 -173.14  0.14165  -86.94
1869.555  0.15389 -145.08  0.88411  171.30  0.88444  171.76  0.15463 -144.64
1890.550  0.18166  164.76  0.87494  156.71  0.87657  156.89  0.18142  165.06
1911.545  0.19855  122.89  0.87386  142.13  0.87453  141.84  0.19930  122.92
1932.540  0.19144   83.83  0.88614  127.90  0.88634  127.80  0.19246   83.89
1953.535  0.15341   45.91  0.90660  112.15  0.90697  112.34  0.15501   46.32
1974.530  0.08942    2.76  0.92081   95.84  0.92163   95.68  0.09089    2.88
1995.525  0.03656 -100.49  0.91899   78.44  0.92093   78.92  0.03766  -99.77
2016.520  0.09708  160.52  0.89744   61.56  0.89926   61.43  0.09645  161.19
2037.515  0.16353  118.67  0.87691   45.76  0.87783   46.03  0.16256  118.48
2058.510  0.20274   81.33  0.86042   31.21  0.86362   31.92  0.20169   81.55
2079.505  0.20730   44.38  0.86257   15.96  0.86237   16.32  0.20739   44.20
2100.500  0.17895    5.29  0.86972    0.36  0.87050    0.60  0.18038    5.04
2121.495  0.13203  -43.71  0.86901  -16.33  0.86903  -16.10  0.13152  -43.93
2142.490  0.09452 -113.21  0.85148  -33.35  0.85325  -32.96  0.09443 -113.29
2163.485  0.10662  172.42  0.83206  -48.37  0.83437  -48.07  0.10492  172.83
2184.480  0.13212  117.18  0.82843  -63.60  0.83107  -63.71  0.13357  117.62
2205.475  0.13307   70.57  0.84878  -78.88  0.85096  -78.51  0.13515   70.02
2226.470  0.10495   19.97  0.87663  -96.07  0.87797  -96.01  0.10695   19.82
2247.465  0.07571  -56.63  0.88810 -114.92  0.89229 -114.75  0.07447  -56.02
2268.460  0.11585 -145.94  0.86642 -133.96  0.86842 -133.68  0.11862 -145.64
2289.455  0.19202  162.52  0.83213 -151.91  0.83406 -151.84  0.19091  162.58
2310.450  0.25611  124.64  0.80748 -168.20  0.80846 -168.01  0.25512  124.44
2331.445  0.28040   89.74  0.80385  176.02  0.80687  176.05  0.27917   89.77
2352.440  0.27423   58.07  0.82047  157.94  0.81888  158.21  0.27375   58.10
2373.435  0.22155   31.26  0.82558  138.43  0.82756  138.42  0.22229   31.35
2394.430  0.15450   16.26  0.81531  117.95  0.81459  118.37  0.15424   15.99
2415.425  0.12540   20.73  0.79274   98.61  0.79409   98.60  0.12666   20.96
2436.420  0.17430   16.81  0.77158   78.75  0.77308   79.26  0.16879   16.61
2457.415  0.23030  -12.08  0.76100   58.31  0.76197   58.16  0.22895  -12.20
2478.410  0.27901  -52.94  0.73053   35.28  0.72766   35.37  0.27985  -53.02
2499.405  0.33336  -96.95  0.66879   13.33  0.66572   13.75  0.33134  -96.55
2520.400  0.38509 -139.57  0.62211   -6.40  0.62205   -5.67  0.38168 -138.46
2541.395  0.44090 -177.31  0.57861  -25.11  0.58043  -24.89  0.44191 -177.49
2562.390  0.48676  147.91  0.55927  -45.43  0.55999  -45.31  0.48627  148.11
2583.385  0.51725  121.21  0.54237  -69.95  0.54140  -69.62  0.52365  120.53
2604.380  0.57216   94.82  0.50694  -96.88  0.50816  -96.03  0.57003   95.68
2625.375  0.61948   69.03  0.44330 -125.02  0.44365 -124.78  0.61948   69.15
2646.370  0.68224   41.35  0.36401 -151.70  0.36522 -151.07  0.68034   41.74
2667.365  0.69966   11.85  0.28589 -177.66  0.28689 -177.58  0.70024   12.15
2688.360  0.70083  -19.03  0.21728  158.31  0.21838  158.76  0.70065  -18.90
2709.355  0.68914  -50.16  0.16272  137.26  0.16329  137.14  0.69164  -50.17
2730.350  0.67722  -82.71  0.12270  116.83  0.12296  117.67  0.67659  -82.20
2751.345  0.68652 -114.53  0.09323   96.48  0.09367   96.43  0.68516 -114.38
2772.340  0.71535 -146.81  0.07031   73.32  0.07065   73.69  0.71398 -147.99
2793.335  0.74441 -179.95  0.04954   50.37  0.04973   50.85  0.74497 -179.70
2814.330  0.77873  149.21  0.03402   30.67  0.03401   30.60  0.78139  149.12
2835.325  0.80884  120.38  0.02363    9.86  0.02362   11.62  0.80857  121.54
2856.320  0.84134   94.04  0.01686   -7.52  0.01712   -6.60  0.84354   94.64
2877.315  0.83885   68.67  0.01336  -26.66  0.01340  -26.10  0.84064   68.42
2898.310  0.82938   42.68  0.01188  -46.61  0.01144  -49.06  0.82988   42.67
2919.305  0.81536   17.58  0.01211  -71.65  0.01235  -70.50  0.81654   17.76
2940.300  0.78026   -7.44  0.01334  -94.93  0.01316  -97.04  0.77790   -7.40
2961.295  0.74854  -34.32  0.01411 -120.27  0.01439 -119.45  0.75123  -34.00
2982.290  0.73215  -62.35  0.01584 -142.74  0.01588 -142.64  0.73408  -61.51
3003.285  0.73127  -90.24  0.01673 -164.55  0.01680 -164.09  0.73340  -90.81
3024.280  0.73931 -120.94  0.01690  173.67  0.01700  174.28  0.73674 -121.53
3045.275  0.74416 -153.55  0.01648  157.99  0.01639  158.50  0.74860 -152.45
3066.270  0.77150  178.32  0.01574  144.98  0.01568  145.37  0.77097  178.08
3087.265  0.80318  149.69  0.01537  131.73  0.01528  132.56  0.81288  149.82
3108.260  0.84765  120.31  0.01600  121.17  0.01566  122.79  0.84331  120.88
3129.255  0.85093   96.89  0.01689  111.10  0.01677  111.68  0.85797   97.05
3150.250  0.86456   71.66  0.01837   98.65  0.01833   98.64  0.86156   70.92
3171.245  0.84343   45.82  0.02070   83.85  0.02074   85.00  0.84580   46.41
3192.240  0.83270   22.99  0.02327   68.49  0.02302   68.05  0.83282   22.61
3213.235  0.80564   -1.35  0.02495   48.32  0.02467   48.29  0.80093   -1.62
3234.230  0.77749  -26.15  0.02538   28.09  0.02517   26.95  0.77190  -26.50
3255.225  0.75082  -52.54  0.02452    5.79  0.02404    5.95  0.74959  -52.79
3276.220  0.74546  -80.64  0.02306  -12.29  0.02246  -10.77  0.74568  -79.83
3297.215  0.72365 -108.98  0.01981  -28.69  0.02008  -30.98  0.72680 -109.73
3318.210  0.73675 -139.59  0.01809  -43.35  0.01841  -43.19  0.73922 -140.19
3339.205  0.77101 -168.97  0.01646  -53.76  0.01596  -52.25  0.77908 -169.79
3360.200  0.80184  162.08  0.01442  -63.83  0.01454  -65.72  0.80005  161.39
3381.195  0.84388  134.72  0.01358  -74.63  0.01306  -74.59  0.83829  134.70
3402.190  0.86821  107.68  0.01334  -83.62  0.01348  -80.34  0.86450  108.57
3423.185  0.87970   82.49  0.01274  -95.36  0.01266  -94.57  0.88355   82.68
3444.180  0.87531   58.73  0.01208 -108.32  0.01211 -106.60  0.87978   58.75
3465.175  0.86709   34.68  0.01177 -123.45  0.01223 -121.76  0.86540   35.27
3486.170  0.82809   11.86  0.01195 -140.91  0.01164 -140.41  0.82804   12.17
3507.165  0.79948  -10.74  0.01092 -161.26  0.01119 -160.27  0.80090  -12.15
3528.160  0.75753  -34.79  0.00935  175.44  0.00962  176.10  0.76415  -35.84
3549.155  0.74583  -62.41  0.00712  153.82  0.00736  154.57  0.75510  -62.86
3570.150  0.72233  -90.59  0.00572  133.38  0.00563  135.59  0.71962  -89.63
3591.145  0.70989 -119.57  0.00330  125.94  0.00361  128.93  0.70380 -120.02
3612.140  0.74937 -149.12  0.00173  110.21  0.00184  116.68  0.74802 -149.18
3633.135  0.77674 -179.31  0.00130  170.57  0.00141  167.22  0.77051 -178.24
3654.130  0.80138  152.60  0.00184 -145.91  0.00184 -146.24  0.81425  151.22
3675.125  0.84661  124.55  0.00319 -144.02  0.00295 -143.82  0.85391  124.72
3696.120  0.89374   98.20  0.00490 -151.18  0.00493 -147.82  0.87759   98.26
3717.115  0.88099   72.59  0.00653 -155.30  0.00620 -153.86  0.87495   71.18
3738.110  0.88468   49.20  0.00762 -161.29  0.00751 -163.30  0.88267   48.63
3759.105  0.85207   26.51  0.00995 -175.72  0.00989 -178.28  0.84932   26.16
3780.100  0.82012    3.03  0.01148  168.44  0.01169  169.59  0.82858    2.68
3801.095  0.79658  -20.84  0.01309  153.48  0.01319  152.28  0.78498  -20.57
3822.090  0.76739  -47.12  0.01337  138.38  0.01353  138.06  0.76400  -47.20
3843.085  0.73480  -71.69  0.01327  122.28  0.01347  122.25  0.73937  -70.30
3864.080  0.72653  -99.12  0.01269  113.58  0.01265  112.62  0.72199  -97.74
3885.075  0.72792 -128.78  0.01215  101.28  0.01239  103.60  0.71810 -128.40
3906.070  0.72821 -156.94  0.01311   95.09  0.01289   95.40  0.77479 -156.53
3927.065  0.77963  174.73  0.01220   89.73  0.01235   90.04  0.75623  172.23
3948.060  0.78730  145.44  0.01354   84.68  0.01333   82.78  0.82515  143.96
3969.055  0.82775  119.72  0.01592   70.12  0.01677   70.64  0.83044  121.69
3990.050  0.87382   94.20  0.01713   57.48  0.01680   55.38  0.85334   93.45
4011.045  0.86812   64.62  0.02040   39.21  0.02014   37.95  0.84837   66.76
4032.040  0.81589   48.90  0.02481   16.84  0.02467   17.41  0.80164   49.29
4053.035  0.88176   22.84  0.02887   -4.39  0.02901   -3.56  0.87086   22.68
4074.030  0.84094    1.78  0.03017  -21.64  0.03053  -20.88  0.84067    2.03
4095.025  0.80117  -20.22  0.02955  -40.06  0.02993  -39.96  0.79008  -23.11
4116.020  0.72742  -43.10  0.02747  -55.44  0.02732  -55.65  0.72026  -43.49
4137.015  0.65230  -67.78  0.02486  -69.05  0.02473  -69.72  0.68372  -69.77
4158.010  0.75160  -98.97  0.02317  -80.26  0.02282  -79.42  0.78226  -97.31
4179.005  0.73562 -133.22  0.02244  -91.30  0.02221  -91.14  0.72906 -133.87
4200.000  0.77736 -157.46  0.02200 -100.90  0.02171  -99.98  0.91771 -153.69
