# MHz S MA R 50
!   freq        S11       
   1.000  0.00607    4.44
  21.995  0.01363  -25.99
  42.990  0.02038  -65.00
  63.985  0.02627  -97.58
  84.980  0.03116 -125.87
 105.975  0.03165 -150.59
 126.970  0.02856 -172.29
 147.965  0.02293  174.23
 168.960  0.01763 -179.19
 189.955  0.02241 -162.59
 210.950  0.03462 -167.53
 231.945  0.04787  173.89
 252.940  0.05815  149.77
 273.935  0.06319  122.20
 294.930  0.06225   91.91
 315.925  0.05605   57.82
 336.920  0.04670   17.28
 357.915  0.03951  -31.96
 378.910  0.03800  -86.26
 399.905  0.04158 -134.96
 420.900  0.04375 -175.02
 441.895  0.04008  151.17
 462.890  0.02892  122.62
 483.885  0.01125  112.16
 504.880  0.01590 -152.94
 525.875  0.04083 -168.97
 546.870  0.06341  164.37
 567.865  0.07985  135.08
 588.860  0.08684  103.96
 609.855  0.08346   69.96
 630.850  0.07163   31.14
 651.845  0.05686  -17.03
 672.840  0.05066  -78.96
 693.835  0.05998 -138.53
 714.830  0.07464  174.99
 735.825  0.08330  136.43
 756.820  0.08067  100.00
 777.815  0.06677   63.19
 798.810  0.04251   18.99
 819.805  0.02241  -62.09
 840.800  0.03688 -157.30
 861.795  0.06144  153.99
 882.790  0.07782  114.72
 903.785  0.08174   74.88
 924.780  0.07379   30.28
 945.775  0.06542  -26.97
 966.770  0.07364  -91.78
 987.765  0.10041 -145.62
1008.760  0.13043  172.19
1029.755  0.15151  135.74
1050.750  0.15702  101.49
1071.745  0.14356   66.92
1092.740  0.11454   31.32
1113.735  0.07381   -9.35
1134.730  0.03575  -75.41
1155.725  0.03774  176.23
1176.720  0.06520  117.41
1197.715  0.08169   70.52
1218.710  0.08643   21.60
1239.705  0.08939  -34.17
1260.700  0.10736  -93.11
1281.695  0.14316 -143.28
1302.690  0.18043  175.07
1323.685  0.20701  138.37
1344.680  0.21650  103.63
1365.675  0.20228   70.48
1386.670  0.16441   36.28
1407.665  0.10908   -0.41
1428.660  0.04825  -50.71
1449.655  0.03354  175.70
1470.650  0.07558  108.06
1491.645  0.10483   64.02
1512.640  0.11476   18.38
1533.635  0.11948  -34.14
1554.630  0.13364  -90.19
1575.625  0.16753 -141.82
1596.620  0.20381  174.54
1617.615  0.23102  136.53
1638.610  0.23498  101.60
1659.605  0.21055   67.35
1680.600  0.16130   32.31
1701.595  0.08936   -6.43
1722.590  0.02083 -103.21
1743.585  0.07526  138.22
1764.580  0.13241   96.12
1785.575  0.16237   57.14
1806.570  0.16757   16.60
1827.565  0.15313  -31.03
1848.560  0.14380  -86.87
1869.555  0.15609 -144.24
1890.550  0.18291  165.47
1911.545  0.19912  123.10
1932.540  0.19198   84.50
1953.535  0.15435   46.71
1974.530  0.09071    2.98
1995.525  0.03473 -100.60
2016.520  0.09672  160.89
2037.515  0.16432  118.15
2058.510  0.20441   81.18
2079.505  0.20972   44.57
2100.500  0.18084    5.52
2121.495  0.13256  -43.01
2142.490  0.09431 -111.94
2163.485  0.10434  173.22
2184.480  0.13113  116.63
2205.475  0.13134   70.10
2226.470  0.10619   18.85
2247.465  0.07543  -57.52
2268.460  0.11517 -145.34
2289.455  0.19388  163.42
2310.450  0.25566  125.04
2331.445  0.28174   89.16
2352.440  0.27255   59.27
2373.435  0.22172   31.81
2394.430  0.15705   16.67
2415.425  0.12584   21.13
2436.420  0.17416   17.16
2457.415  0.22949  -11.88
2478.410  0.28012  -52.16
2499.405  0.33077  -96.29
2520.400  0.38310 -138.55
2541.395  0.44440 -176.56
2562.390  0.48416  147.94
2583.385  0.52190  120.37
2604.380  0.57001   95.14
2625.375  0.61964   68.94
2646.370  0.67809   41.61
2667.365  0.70194   11.98
2688.360  0.69859  -19.04
2709.355  0.68785  -50.31
2730.350  0.67483  -82.70
2751.345  0.68501 -114.60
2772.340  0.71114 -148.62
2793.335  0.74330  179.89
2814.330  0.78030  148.04
2835.325  0.80061  121.45
2856.320  0.83762   94.23
2877.315  0.83857   68.12
2898.310  0.82788   42.31
2919.305  0.81583   17.59
2940.300  0.77782   -7.76
2961.295  0.75568  -34.33
2982.290  0.72911  -62.85
3003.285  0.73029  -91.79
3024.280  0.73756 -121.33
3045.275  0.74902 -153.68
3066.270  0.76835  177.62
3087.265  0.81160  148.20
3108.260  0.84717  120.50
3129.255  0.85449   96.36
3150.250  0.86258   71.01
3171.245  0.84465   45.81
3192.240  0.83272   22.52
3213.235  0.80378   -1.89
3234.230  0.77395  -26.65
3255.225  0.75289  -52.48
3276.220  0.74310  -80.72
3297.215  0.72189 -110.14
3318.210  0.74792 -141.23
3339.205  0.76470 -169.48
3360.200  0.80376  161.14
3381.195  0.83981  135.25
3402.190  0.86449  108.05
3423.185  0.88260   82.58
3444.180  0.87445   58.43
3465.175  0.86452   35.17
3486.170  0.83071   12.26
3507.165  0.79669  -12.82
3528.160  0.75799  -35.09
3549.155  0.75869  -63.40
3570.150  0.72889  -90.77
3591.145  0.70944 -119.78
3612.140  0.74632 -149.94
3633.135  0.77030 -178.66
3654.130  0.81047  150.95
3675.125  0.85592  124.25
3696.120  0.88107   97.80
3717.115  0.87674   71.97
3738.110  0.88455   49.67
3759.105  0.84926   26.35
3780.100  0.83538    2.44
3801.095  0.79152  -21.21
3822.090  0.76289  -46.93
3843.085  0.73784  -70.53
3864.080  0.72299  -98.38
3885.075  0.75560 -129.11
3906.070  0.73698 -157.47
3927.065  0.78757  172.65
3948.060  0.78080  141.73
3969.055  0.82273  119.44
3990.050  0.85647   93.80
4011.045  0.84927   66.89
4032.040  0.80809   49.36
4053.035  0.85098   22.92
4074.030  0.81309    0.83
4095.025  0.79124  -22.45
4116.020  0.71146  -42.68
4137.015  0.68302  -69.85
4158.010  0.78656  -97.26
4179.005  0.72003 -132.93
4200.000  0.71940 -161.27
