# MHz S MA R 50
!   freq        S11              S21              S12              S22       
   1.000  0.00724    8.38  1.00390   -0.41  1.00369   -0.42  0.00620    8.39
  21.995  0.01570  -36.28  0.99439  -14.89  0.99439  -14.86  0.01569  -35.67
  42.990  0.02343  -76.24  0.99115  -29.31  0.99134  -29.29  0.02339  -75.79
  63.985  0.03028 -109.43  0.98800  -43.48  0.98817  -43.49  0.03018 -109.62
  84.980  0.03636 -139.12  0.98671  -57.61  0.98687  -57.61  0.03625 -139.09
 105.975  0.03759 -167.20  0.99391  -71.55  0.98555  -71.64  0.03747 -167.26
 126.970  0.03485  165.69  0.98490  -85.71  0.98522  -85.72  0.03489  165.78
 147.965  0.02873  140.65  0.98480  -99.92  0.98482  -99.89  0.02874  140.75
 168.960  0.01839  120.95  0.98393 -114.11  0.98360 -114.11  0.01832  120.89
 189.955  0.00775  134.81  0.98202 -128.26  0.98201 -128.25  0.00777  134.51
 210.950  0.01254 -168.57  0.97983 -142.47  0.98018 -142.43  0.01260 -168.19
 231.945  0.02378  179.57  0.97856 -156.55  0.97837 -156.50  0.02388  179.62
 252.940  0.03154  155.01  0.97668 -170.63  0.97731 -170.62  0.03169  154.94
 273.935  0.03397  125.43  0.97560  175.29  0.97559  175.32  0.03406  125.49
 294.930  0.03034   90.98  0.97452  161.17  0.97486  161.17  0.03043   91.18
 315.925  0.02213   44.11  0.97399  147.07  0.97406  147.15  0.02216   44.37
 336.920  0.01810  -32.71  0.97239  132.98  0.97260  132.92  0.01812  -32.41
 357.915  0.02999 -102.80  0.97103  118.76  0.97067  118.81  0.02979 -102.74
 378.910  0.04715 -146.66  0.96915  104.61  0.96924  104.64  0.04708 -146.58
 399.905  0.06224  177.91  0.96700   90.52  0.96706   90.57  0.06215  178.13
 420.900  0.07164  145.42  0.96448   76.49  0.96429   76.44  0.07160  145.33
 441.895  0.07346  113.01  0.96253   62.51  0.96312   62.47  0.07348  113.20
 462.890  0.06727   79.91  0.96210   48.53  0.96228   48.56  0.06708   79.84
 483.885  0.05377   43.79  0.96219   34.44  0.96235   34.43  0.05374   43.81
 504.880  0.03673   -0.09  0.96327   20.43  0.96316   20.37  0.03665   -0.13
 525.875  0.02472  -64.70  0.96402    6.37  0.96413    6.33  0.02469  -65.00
 546.870  0.02602 -137.58  0.96369   -7.91  0.96406   -7.87  0.02595 -137.59
 567.865  0.03167  170.36  0.96301  -21.87  0.96312  -21.88  0.03156  170.21
 588.860  0.03038  128.12  0.96329  -36.13  0.96158  -36.03  0.03047  128.10
 609.855  0.01908   82.77  0.96402  -50.18  0.96656  -50.27  0.01906   83.09
 630.850  0.01073  -45.31  0.96586  -64.60  0.96697  -64.64  0.01083  -44.67
 651.845  0.03771 -120.07  0.96551  -79.00  0.96550  -79.03  0.03747 -120.00
 672.840  0.07209 -157.19  0.96209  -93.50  0.96182  -93.52  0.07182 -157.22
 693.835  0.10478  170.30  0.95000 -107.70  0.95110 -107.61  0.10498  170.44
 714.830  0.13079  138.77  0.94099 -121.65  0.94094 -121.50  0.13088  138.80
 735.825  0.14606  107.60  0.93489 -135.11  0.93567 -134.97  0.14587  107.59
 756.820  0.14931   76.04  0.93745 -148.74  0.93774 -148.76  0.14940   75.98
 777.815  0.14018   43.40  0.94324 -162.44  0.94342 -162.65  0.14014   43.37
 798.810  0.12035    8.57  0.94876 -176.64  0.94863 -176.74  0.12039    8.30
 819.805  0.09559  -29.56  0.95038  169.15  0.95058  169.24  0.09544  -29.50
 840.800  0.07132  -71.82  0.95142  154.59  0.95181  154.68  0.07114  -71.95
 861.795  0.05147 -116.88  0.95199  140.55  0.95023  140.47  0.05143 -117.06
 882.790  0.03422 -158.66  0.95396  126.76  0.95418  126.64  0.03419 -158.90
 903.785  0.01579 -168.38  0.95757  112.19  0.95775  112.05  0.01577 -168.44
 924.780  0.02772 -112.07  0.95819   97.65  0.95860   97.55  0.02735 -111.83
 945.775  0.06888 -130.14  0.95472   82.82  0.95447   82.83  0.06859 -130.19
 966.770  0.11762 -158.65  0.94387   68.29  0.94448   68.40  0.11777 -158.50
 987.765  0.16656  171.45  0.93281   54.24  0.93150   54.31  0.16635  171.45
1008.760  0.20674  141.18  0.92224   40.48  0.92125   40.65  0.20685  141.39
1029.755  0.23344  111.35  0.91600   26.71  0.91526   26.69  0.23330  111.09
1050.750  0.24159   80.72  0.91476   13.21  0.91535   13.55  0.24162   80.83
1071.745  0.23167   49.31  0.91834   -0.31  0.91970   -0.28  0.23232   49.38
1092.740  0.20752   16.93  0.92438  -14.27  0.92467  -14.17  0.20756   16.85
1113.735  0.17036  -17.08  0.93024  -28.57  0.93077  -28.50  0.17045  -17.07
1134.730  0.12857  -53.14  0.93403  -43.07  0.93614  -42.87  0.12864  -53.11
1155.725  0.08783  -90.50  0.93975  -56.88  0.93770  -56.99  0.08756  -90.37
1176.720  0.05218 -124.48  0.93878  -71.63  0.93712  -71.27  0.05217 -124.41
1197.715  0.02676 -125.71  0.93939  -85.67  0.93928  -85.83  0.02673 -125.53
1218.710  0.04534  -99.82  0.94331 -100.64  0.94307 -100.33  0.04575  -99.89
1239.705  0.09528 -120.93  0.94417 -115.02  0.94381 -115.06  0.09484 -120.99
1260.700  0.15555 -151.24  0.93631 -129.99  0.93729 -130.19  0.15492 -151.47
1281.695  0.21484  177.69  0.92023 -144.52  0.91997 -144.33  0.21496  177.78
1302.690  0.26464  146.58  0.89989 -159.14  0.89961 -159.08  0.26479  146.65
1323.685  0.29800  115.66  0.88500 -171.95  0.88540 -172.28  0.29833  115.39
1344.680  0.31240   85.42  0.87942  174.99  0.87958  175.03  0.31255   85.45
1365.675  0.30269   54.85  0.88838  162.37  0.88803  162.29  0.30331   54.57
1386.670  0.26890   23.57  0.90581  148.47  0.90603  148.29  0.26978   23.31
1407.665  0.22029   -9.33  0.92182  133.62  0.92129  133.97  0.21988   -9.19
1428.660  0.16068  -43.63  0.92904  118.96  0.92873  118.92  0.16095  -43.62
1449.655  0.10181  -79.83  0.92606  103.92  0.92594  103.73  0.10186  -79.78
1470.650  0.05033 -112.44  0.92092   89.67  0.92213   89.53  0.05019 -112.20
1491.645  0.01984  -92.35  0.92240   75.63  0.92190   75.05  0.01913  -91.95
1512.640  0.05260  -72.93  0.92759   60.67  0.92775   60.96  0.05274  -73.14
1533.635  0.10831 -105.87  0.93038   46.15  0.92809   45.82  0.10784 -106.04
1554.630  0.17222 -141.83  0.91707   30.63  0.91838   30.67  0.17222 -141.90
1575.625  0.23822 -175.80  0.89374   16.37  0.89544   16.40  0.23762 -175.79
1596.620  0.29304  150.97  0.87321    2.44  0.87352    2.67  0.29241  150.89
1617.615  0.33066  120.05  0.86339   -9.98  0.86299  -10.10  0.33060  119.57
1638.610  0.34084   89.06  0.86844  -22.78  0.86855  -22.59  0.34137   89.25
1659.605  0.32685   58.10  0.88573  -36.37  0.88663  -35.92  0.32620   58.45
1680.600  0.28808   26.87  0.90946  -51.04  0.90934  -50.57  0.28770   27.07
1701.595  0.22461   -5.06  0.92864  -65.59  0.92738  -65.99  0.22519   -4.89
1722.590  0.14963  -38.75  0.92912  -81.49  0.93010  -81.52  0.14972  -38.72
1743.585  0.07292  -75.05  0.92495  -95.97  0.92457  -95.90  0.07308  -74.84
1764.580  0.00823 -127.88  0.91537 -110.40  0.91527 -110.32  0.00915 -124.76
1785.575  0.03936   25.36  0.90971 -124.93  0.91026 -124.95  0.03883   25.20
1806.570  0.07511  -27.39  0.91294 -139.69  0.91438 -139.69  0.07526  -27.66
1827.565  0.11440  -80.68  0.91276 -155.34  0.91278 -154.95  0.11541  -80.66
1848.560  0.16942 -127.65  0.89774 -169.71  0.89636 -170.02  0.16839 -127.97
1869.555  0.22900 -168.86  0.87243  175.33  0.87364  175.73  0.23062 -168.31
1890.550  0.28312  155.09  0.85060  162.12  0.84976  162.48  0.28301  155.19
1911.545  0.31954  121.88  0.84293  149.47  0.84304  149.46  0.31984  121.59
1932.540  0.32998   90.01  0.85108  137.30  0.85170  137.16  0.33138   89.36
1953.535  0.31234   58.43  0.87499  123.57  0.87616  123.94  0.31259   58.75
1974.530  0.26584   27.77  0.90617  109.40  0.90605  109.28  0.26539   27.79
1995.525  0.19350   -3.44  0.93287   93.78  0.93247   93.96  0.19378   -3.46
2016.520  0.10758  -35.46  0.93896   77.41  0.93870   77.70  0.10853  -35.29
2037.515  0.02602  -61.33  0.92980   61.82  0.92972   61.77  0.02564  -60.92
2058.510  0.04510   65.56  0.91702   46.69  0.91756   46.62  0.04406   64.56
2079.505  0.09014   26.35  0.90889   32.00  0.90721   32.26  0.08945   26.59
2100.500  0.11630  -19.50  0.90447   17.26  0.90460   17.38  0.11622  -19.39
2121.495  0.13923  -72.72  0.89427    1.55  0.89437    1.40  0.13992  -72.66
2142.490  0.18095 -124.87  0.86732  -13.83  0.86791  -13.72  0.18148 -124.47
2163.485  0.23356 -168.02  0.83205  -27.42  0.83241  -27.18  0.23234 -168.19
2184.480  0.28469  152.73  0.80747  -40.13  0.80697  -40.11  0.28454  152.81
2205.475  0.31539  119.27  0.80919  -51.41  0.80836  -51.16  0.31592  119.34
2226.470  0.32060   87.65  0.83285  -63.30  0.83388  -63.36  0.32182   87.64
2247.465  0.29435   57.34  0.88240  -76.18  0.88515  -76.32  0.29607   57.28
2268.460  0.23606   28.33  0.93144  -92.34  0.93166  -91.92  0.23560   28.36
2289.455  0.15637    1.97  0.95692 -109.63  0.95810 -109.53  0.15630    2.04
2310.450  0.06719  -10.78  0.94563 -126.86  0.94557 -127.26  0.06715  -10.58
2331.445  0.05187   53.84  0.92744 -143.44  0.92694 -142.95  0.04922   53.51
2352.440  0.11074   48.56  0.91419 -157.99  0.91572 -158.15  0.11002   48.91
2373.435  0.14969   17.32  0.90328 -173.25  0.90249 -173.07  0.15092   17.13
2394.430  0.16019  -22.25  0.89035  170.58  0.88995  170.79  0.16126  -22.22
2415.425  0.16417  -72.00  0.86032  155.02  0.85911  154.80  0.16452  -72.95
2436.420  0.17908 -123.54  0.81733  140.82  0.81794  140.55  0.17724 -124.17
2457.415  0.21960 -171.71  0.78716  129.03  0.78857  129.29  0.22120 -170.86
2478.410  0.25494  148.12  0.78642  118.21  0.78571  117.88  0.25799  147.33
2499.405  0.28229  111.61  0.81120  105.72  0.81154  105.87  0.28208  111.96
2520.400  0.27827   80.84  0.88282   92.45  0.88104   92.77  0.27436   81.84
2541.395  0.23842   52.03  0.92781   76.98  0.92613   77.27  0.23745   52.06
2562.390  0.17470   27.66  0.94580   59.66  0.94623   59.57  0.17390   27.61
2583.385  0.09246   15.93  0.93932   41.72  0.93982   41.78  0.09234   16.14
2604.380  0.05774   56.12  0.93079   26.52  0.93217   26.57  0.06208   56.78
2625.375  0.10333   64.95  0.93013   11.11  0.93076   10.87  0.10711   65.02
2646.370  0.15815   42.35  0.92903   -3.97  0.92762   -4.55  0.16255   42.76
2667.365  0.17772   11.25  0.92191  -20.42  0.92126  -20.77  0.17619   10.00
2688.360  0.16424  -28.66  0.90094  -36.61  0.90028  -35.96  0.16550  -28.66
2709.355  0.14845  -78.28  0.87274  -51.00  0.87372  -51.20  0.14442  -78.32
2730.350  0.14242 -138.46  0.84480  -64.32  0.84841  -64.48  0.14519 -137.75
2751.345  0.17836  172.93  0.84116  -76.40  0.84135  -76.91  0.17918  172.97
2772.340  0.21239  130.45  0.85392  -89.84  0.85218  -90.02  0.21647  128.93
2793.335  0.22729   94.80  0.88031 -103.67  0.88147 -103.18  0.23232   94.83
2814.330  0.20782   63.46  0.89897 -119.43  0.90446 -119.20  0.20204   62.59
2835.325  0.14979   32.95  0.91342 -135.39  0.91412 -135.35  0.15064   34.34
2856.320  0.07679   16.15  0.91097 -151.89  0.91203 -151.82  0.07700   13.89
2877.315  0.03084   81.19  0.91108 -167.80  0.91205 -167.39  0.02538   79.64
2898.310  0.08795   98.32  0.90553  176.94  0.90414  176.93  0.08666   98.46
2919.305  0.14661   78.28  0.91001  161.14  0.91102  161.34  0.14514   78.16
2940.300  0.15782   52.46  0.90895  145.49  0.90958  145.14  0.15651   50.57
2961.295  0.12877   19.46  0.90018  129.35  0.89865  129.72  0.13033   19.24
2982.290  0.06475  -16.00  0.88442  112.77  0.88206  113.28  0.06309  -13.36
3003.285  0.02347 -142.51  0.86695   98.95  0.87244   99.37  0.02629 -156.61
3024.280  0.09575  130.78  0.86080   84.05  0.86090   84.24  0.09781  131.19
3045.275  0.16270   94.82  0.85569   69.83  0.85625   69.31  0.16434   95.67
3066.270  0.21105   66.35  0.86441   55.55  0.86281   55.71  0.21074   65.59
3087.265  0.21608   32.91  0.86258   39.86  0.86191   39.79  0.21949   31.63
3108.260  0.19308   -0.34  0.85416   23.73  0.85246   23.87  0.18617    0.46
3129.255  0.13883  -38.91  0.83963    7.66  0.84004    7.16  0.13961  -38.51
3150.250  0.09297  -90.77  0.83372   -8.32  0.83533   -8.71  0.09507  -88.98
3171.245  0.07600 -158.41  0.83899  -24.57  0.84029  -24.46  0.07367 -158.10
3192.240  0.08998  151.13  0.85077  -39.76  0.84937  -39.62  0.08247  148.65
3213.235  0.09041  123.30  0.86211  -55.82  0.86250  -56.82  0.09140  118.76
3234.230  0.08153  119.60  0.86500  -72.91  0.86624  -72.54  0.07809  118.88
3255.225  0.10560  127.90  0.85943  -89.10  0.85723  -88.97  0.11250  130.90
3276.220  0.18225  122.55  0.85015 -104.54  0.84935 -104.78  0.18062  120.70
3297.215  0.26795  101.01  0.84580 -120.63  0.84373 -121.28  0.27179  101.42
3318.210  0.32812   79.37  0.84165 -136.05  0.84208 -136.10  0.32804   79.54
3339.205  0.36114   53.08  0.84200 -151.37  0.83969 -152.31  0.36987   52.69
3360.200  0.37610   26.78  0.83334 -168.38  0.83329 -168.22  0.38337   26.69
3381.195  0.34407    0.32  0.81909  174.45  0.81973  174.87  0.34170    0.20
3402.190  0.29074  -27.50  0.79090  158.16  0.78989  158.39  0.29399  -25.39
3423.185  0.24197  -52.98  0.77813  142.04  0.77900  141.81  0.23996  -51.71
3444.180  0.19221  -79.33  0.76907  124.18  0.76862  125.55  0.19737  -79.86
3465.175  0.17316 -102.37  0.75829  108.22  0.75924  107.65  0.16392 -102.01
3486.170  0.18934 -129.32  0.74267   89.27  0.74284   89.46  0.18685 -129.89
3507.165  0.23336 -156.99  0.71053   71.59  0.71047   71.17  0.23306 -158.02
3528.160  0.31871  171.54  0.67789   54.99  0.67813   54.59  0.31915  170.08
3549.155  0.39636  146.06  0.64581   39.39  0.64822   39.01  0.39653  146.55
3570.150  0.47747  116.97  0.63458   24.38  0.63406   24.24  0.47807  116.70
3591.145  0.55836   90.13  0.63150    8.59  0.63259    8.56  0.55337   90.18
3612.140  0.54902   64.51  0.63669   -6.64  0.63684   -6.97  0.56016   64.77
3633.135  0.56801   41.61  0.64524  -25.15  0.64448  -25.04  0.56638   41.44
3654.130  0.55215   19.58  0.64581  -43.81  0.64706  -43.67  0.54862   19.45
3675.125  0.52616    0.29  0.63721  -64.77  0.63722  -64.88  0.52587   -0.84
3696.120  0.51225  -21.83  0.60588  -85.76  0.60754  -85.68  0.52994  -23.17
3717.115  0.53573  -46.34  0.56098 -105.23  0.56441 -105.27  0.53176  -46.23
3738.110  0.51197  -73.99  0.50461 -125.00  0.50582 -125.20  0.50703  -74.67
3759.105  0.52939 -102.56  0.44867 -141.16  0.44977 -141.61  0.53542 -100.19
3780.100  0.56739 -134.87  0.39966 -157.79  0.40026 -157.42  0.55626 -132.07
3801.095  0.58964 -161.93  0.36404 -170.46  0.36459 -171.44  0.60557 -163.80
3822.090  0.66773  166.75  0.34075  176.18  0.34201  175.70  0.64764  166.79
3843.085  0.70900  136.49  0.32847  161.18  0.32797  161.01  0.71479  137.25
3864.080  0.77540  112.33  0.32643  147.99  0.32655  147.58  0.75746  111.58
3885.075  0.77754   89.35  0.32756  131.37  0.32744  131.72  0.78334   88.45
3906.070  0.76146   63.63  0.32665  111.91  0.32657  112.09  0.76014   66.96
3927.065  0.79084   40.43  0.31456   92.01  0.31527   91.05  0.77265   40.21
3948.060  0.76054   18.48  0.29563   69.82  0.29568   70.35  0.74854   19.38
3969.055  0.73214   -2.87  0.26011   49.39  0.26183   49.28  0.72043   -3.85
3990.050  0.67444  -29.40  0.22185   31.59  0.22425   31.68  0.69301  -24.62
4011.045  0.64476  -48.07  0.18824   16.85  0.18832   17.17  0.65441  -50.51
4032.040  0.63697  -84.85  0.16145    3.05  0.16095    3.20  0.64027  -85.10
4053.035  0.60346 -108.38  0.14089   -8.66  0.14113   -8.25  0.58994 -107.39
4074.030  0.66201 -140.05  0.12658  -20.06  0.12685  -19.50  0.59710 -140.20
4095.025  0.68903 -167.37  0.11744  -31.85  0.11714  -31.23  0.66742 -170.56
4116.020  0.73907  165.08  0.11193  -44.15  0.11192  -44.14  0.71781  157.04
4137.015  0.76217  135.86  0.11126  -58.15  0.11164  -57.91  0.74585  132.38
4158.010  0.74658  109.98  0.11331  -72.89  0.11322  -72.20  0.78822  102.89
4179.005  0.73421   80.18  0.11349  -90.44  0.11371  -90.86  0.71581   82.98
4200.000  0.68096   61.74  0.10941 -109.64  0.10903 -108.36  0.71678   61.45
