# MHz S MA R 50
!   freq        S11       
   1.000  0.00265   41.53
  21.995  0.00816  -45.05
  42.990  0.01407  -80.83
  63.985  0.01959 -106.80
  84.980  0.02538 -128.78
 105.975  0.02903 -148.14
 126.970  0.03148 -167.29
 147.965  0.03308  173.49
 168.960  0.03253  155.21
 189.955  0.03037  137.62
 210.950  0.02609  119.93
 231.945  0.02023  101.87
 252.940  0.01295   83.04
 273.935  0.00464   59.05
 294.930  0.00461 -114.92
 315.925  0.01368 -140.36
 336.920  0.02261 -158.19
 357.915  0.03047 -175.41
 378.910  0.03710  167.10
 399.905  0.04199  149.05
 420.900  0.04488  130.93
 441.895  0.04520  112.66
 462.890  0.04319   93.33
 483.885  0.03888   72.42
 504.880  0.03245   47.70
 525.875  0.02568   16.01
 546.870  0.02133  -28.72
 567.865  0.02421  -80.48
 588.860  0.03313 -119.25
 609.855  0.04495 -148.14
 630.850  0.05703 -171.53
 651.845  0.06883  167.35
 672.840  0.07862  148.11
 693.835  0.08628  128.82
 714.830  0.09072  109.67
 735.825  0.09188   90.32
 756.820  0.09007   70.15
 777.815  0.08582   48.96
 798.810  0.07901   25.31
 819.805  0.07149   -1.35
 840.800  0.06509  -32.21
 861.795  0.06384  -66.63
 882.790  0.06893 -100.78
 903.785  0.07873 -131.98
 924.780  0.09241 -158.95
 945.775  0.10689  177.00
 966.770  0.12022  155.69
 987.765  0.13077  135.70
1008.760  0.13833  115.52
1029.755  0.14180   96.31
1050.750  0.14098   76.66
1071.745  0.13569   56.14
1092.740  0.12763   35.34
1113.735  0.11673   12.01
1134.730  0.10539  -14.09
1155.725  0.09718  -43.51
1176.720  0.09281  -76.22
1197.715  0.09684 -108.89
1218.710  0.10733 -139.72
1239.705  0.12193 -166.70
1260.700  0.13792  169.05
1281.695  0.15313  147.38
1302.690  0.16514  126.65
1323.685  0.17325  107.00
1344.680  0.17716   87.59
1365.675  0.17613   68.25
1386.670  0.16909   48.03
1407.665  0.15782   27.10
1428.660  0.14362    3.73
1449.655  0.12824  -22.56
1470.650  0.11674  -51.54
1491.645  0.11144  -84.88
1512.640  0.11703 -118.20
1533.635  0.13064 -148.97
1554.630  0.14953 -175.79
1575.625  0.16974  160.86
1596.620  0.18606  138.45
1617.615  0.20226  117.51
1638.610  0.21041   98.17
1659.605  0.21260   78.91
1680.600  0.21036   58.88
1701.595  0.20108   38.61
1722.590  0.18625   17.18
1743.585  0.16835   -6.13
1764.580  0.14964  -33.09
1785.575  0.13464  -63.28
1806.570  0.12942  -97.41
1827.565  0.13669 -132.14
1848.560  0.15257 -163.03
1869.555  0.17502  170.77
1890.550  0.19557  146.55
1911.545  0.21430  124.10
1932.540  0.22800  103.37
1953.535  0.23506   82.98
1974.530  0.23695   63.53
1995.525  0.22691   43.63
2016.520  0.21250   21.76
2037.515  0.19151   -1.22
2058.510  0.16905  -26.66
2079.505  0.14835  -57.05
2100.500  0.13547  -92.07
2121.495  0.13864 -128.06
2142.490  0.15550 -161.79
2163.485  0.17929  169.94
2184.480  0.20298  144.79
2205.475  0.22406  121.09
2226.470  0.24040  100.94
2247.465  0.24891   79.72
2268.460  0.24515   61.10
2289.455  0.23671   41.30
2310.450  0.21935   20.40
2331.445  0.19197   -1.59
2352.440  0.16429  -25.76
2373.435  0.13366  -56.28
2394.430  0.11370  -92.76
2415.425  0.11455 -135.41
2436.420  0.12583 -173.39
2457.415  0.15507  157.06
2478.410  0.17675  132.43
2499.405  0.20119  108.73
2520.400  0.21622   89.14
2541.395  0.21409   70.90
2562.390  0.21595   51.94
2583.385  0.19343   33.91
2604.380  0.16997   14.40
2625.375  0.13899   -9.50
2646.370  0.10430  -31.92
2667.365  0.06955  -65.27
2688.360  0.05215 -117.74
2709.355  0.06329 -173.05
2730.350  0.09012  147.17
2751.345  0.11594  123.88
2772.340  0.14471  102.07
2793.335  0.15627   84.97
2814.330  0.14496   67.33
2835.325  0.13743   51.90
2856.320  0.11944   37.79
2877.315  0.09388   23.84
2898.310  0.06127   10.71
2919.305  0.02869   38.60
2940.300  0.04001  103.57
2961.295  0.07154  107.98
2982.290  0.10448   99.16
3003.285  0.12973   87.19
3024.280  0.14728   70.49
3045.275  0.15532   51.45
3066.270  0.15296   38.50
3087.265  0.14121   17.73
3108.260  0.12408   -3.06
3129.255  0.09011  -28.71
3150.250  0.06977  -65.29
3171.245  0.06346 -129.16
3192.240  0.08799 -174.20
3213.235  0.12929  152.72
3234.230  0.16967  131.88
3255.225  0.20890  110.68
3276.220  0.24065   91.64
3297.215  0.26186   74.54
3318.210  0.26975   56.80
3339.205  0.27104   38.25
3360.200  0.27093   19.13
3381.195  0.25445    0.65
3402.190  0.23085  -22.85
3423.185  0.21222  -45.57
3444.180  0.19969  -76.95
3465.175  0.18506 -107.00
3486.170  0.21358 -141.41
3507.165  0.24191 -173.05
3528.160  0.29643  159.56
3549.155  0.34301  137.09
3570.150  0.40753  113.72
3591.145  0.47933   91.65
3612.140  0.49520   69.32
3633.135  0.54742   48.93
3654.130  0.56501   27.18
3675.125  0.56109    5.29
3696.120  0.56867  -20.51
3717.115  0.57282  -45.90
3738.110  0.54295  -74.35
3759.105  0.54592 -103.65
3780.100  0.57270 -133.45
3801.095  0.61159 -161.88
3822.090  0.66233  167.59
3843.085  0.72223  137.38
3864.080  0.79016  112.17
3885.075  0.81691   87.66
3906.070  0.79949   63.26
3927.065  0.79524   38.83
3948.060  0.77743   16.45
3969.055  0.77965   -5.48
3990.050  0.73170  -26.67
4011.045  0.69990  -51.68
4032.040  0.72086  -86.57
4053.035  0.69655 -106.96
4074.030  0.70984 -135.53
4095.025  0.68888 -169.73
4116.020  0.77679  165.36
4137.015  0.78956  137.43
4158.010  0.77815  111.93
4179.005  0.73725   83.42
4200.000  0.73967   63.48
